T2504 147609:963.847   SEGGER J-Link V7.22b Log File
T2504 147609:963.962   DLL Compiled: Jun 17 2021 17:22:49
T2504 147609:963.973   Logging started @ 2023-08-06 00:13
T2504 147609:964.045 - 360.051ms
T2504 147609:964.073 JLINK_SetWarnOutHandler(...)
T2504 147609:964.081 - 0.012ms
T2504 147609:964.091 JLINK_OpenEx(...)
T2504 147609:965.293   Firmware: J-Link ARM-OB STM32 compiled Aug 22 2012 19:52:04
T2504 147609:965.575   Firmware: J-Link ARM-OB STM32 compiled Aug 22 2012 19:52:04
T2504 147609:967.124   Hardware: V7.00
T2504 147609:967.144   S/N: 20090928
T2504 147609:967.156   OEM: SEGGER
T2504 147609:967.168   Feature(s): RDI,FlashDL,FlashBP,JFlash,GDB
T2504 147609:977.152   TELNET listener socket opened on port 19021
T2504 147609:980.169   WEBSRV Starting webserver
T2504 147609:980.312   WEBSRV Webserver running on local port 19080
T2504 147609:980.324 - 16.235ms returns "O.K."
T2504 147609:980.338 JLINK_GetEmuCaps()
T2504 147609:980.344 - 0.008ms returns 0x88EA5833
T2504 147609:980.649 JLINK_TIF_GetAvailable(...)
T2504 147609:980.786 - 0.145ms
T2504 147609:980.804 JLINK_SetErrorOutHandler(...)
T2504 147609:980.809 - 0.008ms
T2504 147609:980.821 JLINK_ExecCommand("ProjectFile = "C:\Users\zhou\Desktop\wheel-leg-20230730\Gimbal\project\JLinkSettings.ini"", ...). 
T2504 147609:981.882 - 1.071ms returns 0x00
T2504 147609:981.930 JLINK_ExecCommand("Device = STM32F405RGTx", ...). 
T2504 147609:982.304   Device "STM32F405RG" selected.
T2504 147609:982.707 - 0.776ms returns 0x00
T2504 147609:982.738 JLINK_GetHardwareVersion()
T2504 147609:982.748 - 0.013ms returns 70000
T2504 147609:982.760 JLINK_GetDLLVersion()
T2504 147609:982.768 - 0.012ms returns 72202
T2504 147609:982.779 JLINK_GetOEMString(...)
T2504 147609:982.789 JLINK_GetFirmwareString(...)
T2504 147609:982.798 - 0.012ms
T2504 147609:982.830 JLINK_GetDLLVersion()
T2504 147609:982.839 - 0.012ms returns 72202
T2504 147609:982.849 JLINK_GetCompileDateTime()
T2504 147609:982.857 - 0.012ms
T2504 147609:982.873 JLINK_GetFirmwareString(...)
T2504 147609:982.882 - 0.012ms
T2504 147609:982.896 JLINK_GetHardwareVersion()
T2504 147609:982.904 - 0.012ms returns 70000
T2504 147609:982.921 JLINK_GetSN()
T2504 147609:982.929 - 0.012ms returns 20090928
T2504 147609:982.944 JLINK_GetOEMString(...)
T2504 147609:982.967 JLINK_TIF_Select(JLINKARM_TIF_SWD)
T2504 147609:983.310 - 0.356ms returns 0x00
T2504 147609:983.337 JLINK_HasError()
T2504 147609:983.352 JLINK_SetSpeed(5000)
T2504 147609:983.435 - 0.089ms
T2504 147609:983.452 JLINK_GetId()
T2504 147609:983.601   InitTarget() start
T2504 147609:983.617    J-Link Script File: Executing InitTarget()
T2504 147609:994.070   InitTarget() end
T2504 147609:994.675   Found SW-DP with ID 0x2BA01477
T2504 147609:997.917   Old FW that does not support reading DPIDR via DAP jobs
T2504 147610:000.671   DPv0 detected
T2504 147610:000.698   Scanning AP map to find all available APs
T2504 147610:002.620   AP[1]: Stopped AP scan as end of AP map has been reached
T2504 147610:002.638   AP[0]: AHB-AP (IDR: 0x24770011)
T2504 147610:002.650   Iterating through AP map to find AHB-AP to use
T2504 147610:005.825   AP[0]: Core found
T2504 147610:005.852   AP[0]: AHB-AP ROM base: 0xE00FF000
T2504 147610:007.460   CPUID register: 0x410FC241. Implementer code: 0x41 (ARM)
T2504 147610:007.477   Found Cortex-M4 r0p1, Little endian.
T2504 147610:108.155   -- Max. mem block: 0x00002C08
T2504 147610:108.283   CPU_ReadMem(4 bytes @ 0xE000EDF0)
T2504 147610:108.762   CPU_ReadMem(4 bytes @ 0xE0002000)
T2504 147610:109.186   FPUnit: 6 code (BP) slots and 2 literal slots
T2504 147610:109.201   CPU_ReadMem(4 bytes @ 0xE000EDFC)
T2504 147610:109.605   CPU_ReadMem(4 bytes @ 0xE0001000)
T2504 147610:110.034   CPU_WriteMem(4 bytes @ 0xE0001000)
T2504 147610:110.456   CPU_ReadMem(4 bytes @ 0xE000ED88)
T2504 147610:110.892   CPU_WriteMem(4 bytes @ 0xE000ED88)
T2504 147610:111.360   CPU_ReadMem(4 bytes @ 0xE000ED88)
T2504 147610:111.747   CPU_WriteMem(4 bytes @ 0xE000ED88)
T2504 147610:112.207   CoreSight components:
T2504 147610:112.284   ROMTbl[0] @ E00FF000
T2504 147610:112.297   CPU_ReadMem(64 bytes @ 0xE00FF000)
T2504 147610:113.295   CPU_ReadMem(32 bytes @ 0xE000EFE0)
T2504 147610:114.063   ROMTbl[0][0]: E000E000, CID: B105E00D, PID: 000BB00C SCS-M7
T2504 147610:114.079   CPU_ReadMem(32 bytes @ 0xE0001FE0)
T2504 147610:114.761   ROMTbl[0][1]: E0001000, CID: B105E00D, PID: 003BB002 DWT
T2504 147610:114.777   CPU_ReadMem(32 bytes @ 0xE0002FE0)
T2504 147610:115.461   ROMTbl[0][2]: E0002000, CID: B105E00D, PID: 002BB003 FPB
T2504 147610:115.475   CPU_ReadMem(32 bytes @ 0xE0000FE0)
T2504 147610:116.186   ROMTbl[0][3]: E0000000, CID: B105E00D, PID: 003BB001 ITM
T2504 147610:116.201   CPU_ReadMem(32 bytes @ 0xE0040FE0)
T2504 147610:116.876   ROMTbl[0][4]: E0040000, CID: B105900D, PID: 000BB9A1 TPIU
T2504 147610:116.890   CPU_ReadMem(32 bytes @ 0xE0041FE0)
T2504 147610:117.617   ROMTbl[0][5]: E0041000, CID: B105900D, PID: 000BB925 ETM
T2504 147610:117.937 - 134.492ms returns 0x2BA01477
T2504 147610:117.958 JLINK_GetDLLVersion()
T2504 147610:117.966 - 0.012ms returns 72202
T2504 147610:118.019 JLINK_CORE_GetFound()
T2504 147610:118.028 - 0.013ms returns 0xE0000FF
T2504 147610:118.040 JLINK_GetDebugInfo(0x100 = JLINKARM_ROM_TABLE_ADDR_INDEX)
T2504 147610:118.049   Value=0xE00FF000
T2504 147610:118.060 - 0.023ms returns 0
T2504 147610:118.080 JLINK_GetDebugInfo(0x100 = JLINKARM_ROM_TABLE_ADDR_INDEX)
T2504 147610:118.088   Value=0xE00FF000
T2504 147610:118.099 - 0.022ms returns 0
T2504 147610:118.108 JLINK_GetDebugInfo(0x101 = JLINKARM_DEBUG_INFO_ETM_ADDR_INDEX)
T2504 147610:118.115   Value=0xE0041000
T2504 147610:118.126 - 0.021ms returns 0
T2504 147610:118.137 JLINK_ReadMemEx(0xE0041FD0, 0x20 Bytes, Flags = 0x02000004)
T2504 147610:118.152   CPU_ReadMem(32 bytes @ 0xE0041FD0)
T2504 147610:118.824   Data:  04 00 00 00 00 00 00 00 00 00 00 00 00 00 00 00 ...
T2504 147610:118.835 - 0.701ms returns 32 (0x20)
T2504 147610:118.843 JLINK_GetDebugInfo(0x102 = JLINKARM_DEBUG_INFO_MTB_ADDR_INDEX)
T2504 147610:118.850   Value=0x00000000
T2504 147610:118.857 - 0.015ms returns 0
T2504 147610:118.863 JLINK_GetDebugInfo(0x103 = JLINKARM_DEBUG_INFO_TPIU_ADDR_INDEX)
T2504 147610:118.868   Value=0xE0040000
T2504 147610:118.875 - 0.014ms returns 0
T2504 147610:118.881 JLINK_GetDebugInfo(0x104 = JLINKARM_DEBUG_INFO_ITM_ADDR_INDEX)
T2504 147610:118.887   Value=0xE0000000
T2504 147610:118.894 - 0.014ms returns 0
T2504 147610:118.900 JLINK_GetDebugInfo(0x105 = JLINKARM_DEBUG_INFO_DWT_ADDR_INDEX)
T2504 147610:118.905   Value=0xE0001000
T2504 147610:118.912 - 0.014ms returns 0
T2504 147610:118.918 JLINK_GetDebugInfo(0x106 = JLINKARM_DEBUG_INFO_FPB_ADDR_INDEX)
T2504 147610:118.923   Value=0xE0002000
T2504 147610:118.930 - 0.014ms returns 0
T2504 147610:118.936 JLINK_GetDebugInfo(0x107 = JLINKARM_DEBUG_INFO_NVIC_ADDR_INDEX)
T2504 147610:118.941   Value=0xE000E000
T2504 147610:118.949 - 0.016ms returns 0
T2504 147610:118.956 JLINK_GetDebugInfo(0x10C = JLINKARM_DEBUG_INFO_DBG_ADDR_INDEX)
T2504 147610:118.961   Value=0xE000EDF0
T2504 147610:118.968 - 0.014ms returns 0
T2504 147610:118.974 JLINK_GetDebugInfo(0x01 = Unknown)
T2504 147610:118.980   Value=0x00000001
T2504 147610:118.987 - 0.014ms returns 0
T2504 147610:118.995 JLINK_ReadMemU32(0xE000ED00, 0x1 Items)
T2504 147610:119.003   CPU_ReadMem(4 bytes @ 0xE000ED00)
T2504 147610:119.390   Data:  41 C2 0F 41
T2504 147610:119.399   Debug reg: CPUID
T2504 147610:119.407 - 0.414ms returns 1 (0x1)
T2504 147610:119.414 JLINK_GetDebugInfo(0x10F = JLINKARM_DEBUG_INFO_HAS_CORTEX_M_SECURITY_EXT_INDEX)
T2504 147610:119.419   Value=0x00000000
T2504 147610:119.426 - 0.015ms returns 0
T2504 147610:119.433 JLINK_HasError()
T2504 147610:119.441 JLINK_SetResetType(JLINKARM_CM3_RESET_TYPE_NORMAL)
T2504 147610:119.447 - 0.008ms returns JLINKARM_CM3_RESET_TYPE_NORMAL
T2504 147610:119.454 JLINK_Reset()
T2504 147610:119.462   CPU is running
T2504 147610:119.470   CPU_WriteMem(4 bytes @ 0xE000EDF0)
T2504 147610:119.878   CPU is running
T2504 147610:119.887   CPU_WriteMem(4 bytes @ 0xE000EDFC)
T2504 147610:120.371   Reset: Halt core after reset via DEMCR.VC_CORERESET.
T2504 147610:120.693   Reset: Reset device via AIRCR.SYSRESETREQ.
T2504 147610:120.709   CPU is running
T2504 147610:120.723   CPU_WriteMem(4 bytes @ 0xE000ED0C)
T2504 147610:173.059   CPU_ReadMem(4 bytes @ 0xE000EDF0)
T2504 147610:173.457   CPU_ReadMem(4 bytes @ 0xE000EDF0)
T2504 147610:173.850   CPU is running
T2504 147610:173.870   CPU_WriteMem(4 bytes @ 0xE000EDF0)
T2504 147610:174.286   CPU is running
T2504 147610:174.296   CPU_WriteMem(4 bytes @ 0xE000EDFC)
T2504 147610:180.687   CPU_ReadMem(4 bytes @ 0xE000EDF0)
T2504 147610:184.209   CPU_WriteMem(4 bytes @ 0xE0002000)
T2504 147610:184.648   CPU_ReadMem(4 bytes @ 0xE000EDFC)
T2504 147610:185.065   CPU_ReadMem(4 bytes @ 0xE0001000)
T2504 147610:185.509 - 66.067ms
T2504 147610:185.566 JLINK_HasError()
T2504 147610:185.583 JLINK_ReadReg(R15 (PC))
T2504 147610:185.595 - 0.016ms returns 0x08000254
T2504 147610:185.606 JLINK_ReadReg(XPSR)
T2504 147610:185.615 - 0.013ms returns 0x01000000
T2504 147610:185.627 JLINK_Halt()
T2504 147610:185.635 - 0.012ms returns 0x00
T2504 147610:185.645 JLINK_ReadMemU32(0xE000EDF0, 0x1 Items)
T2504 147610:185.659   CPU_ReadMem(4 bytes @ 0xE000EDF0)
T2504 147610:186.078   Data:  03 00 03 00
T2504 147610:186.098   Debug reg: DHCSR
T2504 147610:186.110 - 0.469ms returns 1 (0x1)
T2504 147610:186.127 JLINK_WriteU32_64(0xE000EDF0, 0xA05F0003)
T2504 147610:186.136   Debug reg: DHCSR
T2504 147610:186.368   CPU_WriteMem(4 bytes @ 0xE000EDF0)
T2504 147610:186.797 - 0.677ms returns 0 (0x00000000)
T2504 147610:186.813 JLINK_WriteU32_64(0xE000EDFC, 0x01000000)
T2504 147610:186.823   Debug reg: DEMCR
T2504 147610:186.842   CPU_WriteMem(4 bytes @ 0xE000EDFC)
T2504 147610:187.266 - 0.459ms returns 0 (0x00000000)
T2504 147610:187.310 JLINK_GetHWStatus(...)
T2504 147610:187.431 - 0.126ms returns 0
T2504 147610:187.463 JLINK_GetNumBPUnits(Type = 0xFFFFFF00)
T2504 147610:187.472 - 0.012ms returns 0x06
T2504 147610:187.481 JLINK_GetNumBPUnits(Type = 0xF0)
T2504 147610:187.489 - 0.011ms returns 0x2000
T2504 147610:187.499 JLINK_GetNumWPUnits()
T2504 147610:187.510 - 0.015ms returns 4
T2504 147610:187.532 JLINK_GetSpeed()
T2504 147610:187.540 - 0.012ms returns 4000
T2504 147610:187.556 JLINK_ReadMemU32(0xE000E004, 0x1 Items)
T2504 147610:187.569   CPU_ReadMem(4 bytes @ 0xE000E004)
T2504 147610:188.033   Data:  02 00 00 00
T2504 147610:188.046 - 0.494ms returns 1 (0x1)
T2504 147610:188.057 JLINK_ReadMemU32(0xE000E004, 0x1 Items)
T2504 147610:188.067   CPU_ReadMem(4 bytes @ 0xE000E004)
T2504 147610:188.462   Data:  02 00 00 00
T2504 147610:188.470 - 0.416ms returns 1 (0x1)
T2504 147610:188.479 JLINK_WriteMemEx(0xE0001000, 0x0000001C Bytes, Flags = 0x02000004)
T2504 147610:188.485   Data:  01 00 00 00 00 00 00 00 00 00 00 00 00 00 00 00 ...
T2504 147610:188.496   CPU_WriteMem(28 bytes @ 0xE0001000)
T2504 147610:189.186 - 0.718ms returns 0x1C
T2504 147610:189.209 JLINK_HasError()
T2504 147610:189.221 JLINK_ReadReg(R15 (PC))
T2504 147610:189.232 - 0.016ms returns 0x08000254
T2504 147610:189.245 JLINK_ReadReg(XPSR)
T2504 147610:189.255 - 0.014ms returns 0x01000000
T2504 147610:271.298 JLINK_HasError()
T2504 147610:271.320 JLINK_SetResetType(JLINKARM_CM3_RESET_TYPE_NORMAL)
T2504 147610:271.327 - 0.008ms returns JLINKARM_CM3_RESET_TYPE_NORMAL
T2504 147610:271.334 JLINK_Reset()
T2504 147610:271.350   CPU_WriteMem(4 bytes @ 0xE000EDF0)
T2504 147610:271.841   CPU_WriteMem(4 bytes @ 0xE000EDFC)
T2504 147610:272.334   Reset: Halt core after reset via DEMCR.VC_CORERESET.
T2504 147610:272.730   Reset: Reset device via AIRCR.SYSRESETREQ.
T2504 147610:272.753   CPU_WriteMem(4 bytes @ 0xE000ED0C)
T2504 147610:325.087   CPU_ReadMem(4 bytes @ 0xE000EDF0)
T2504 147610:325.500   CPU_ReadMem(4 bytes @ 0xE000EDF0)
T2504 147610:325.931   CPU_WriteMem(4 bytes @ 0xE000EDF0)
T2504 147610:326.378   CPU_WriteMem(4 bytes @ 0xE000EDFC)
T2504 147610:332.014   CPU_ReadMem(4 bytes @ 0xE000EDF0)
T2504 147610:335.434   CPU_WriteMem(4 bytes @ 0xE0002000)
T2504 147610:335.899   CPU_ReadMem(4 bytes @ 0xE000EDFC)
T2504 147610:336.338   CPU_ReadMem(4 bytes @ 0xE0001000)
T2504 147610:336.771 - 65.443ms
T2504 147610:336.847 JLINK_HasError()
T2504 147610:336.863 JLINK_ReadReg(R15 (PC))
T2504 147610:336.876 - 0.017ms returns 0x08000254
T2504 147610:336.887 JLINK_ReadReg(XPSR)
T2504 147610:336.897 - 0.013ms returns 0x01000000
T2504 147610:337.466 JLINK_ReadMemEx(0x08000254, 0x3C Bytes, Flags = 0x02000000)
T2504 147610:337.491   CPU_ReadMem(128 bytes @ 0x08000240)
T2504 147610:339.167    -- Updating C cache (128 bytes @ 0x08000240)
T2504 147610:339.190    -- Read from C cache (60 bytes @ 0x08000254)
T2504 147610:339.206   Data:  06 48 80 47 06 48 00 47 FE E7 FE E7 FE E7 FE E7 ...
T2504 147610:339.218 - 1.756ms returns 60 (0x3C)
T2504 147611:973.034 JLINK_HasError()
T2504 147611:973.062 JLINK_ReadReg(R0)
T2504 147611:973.490 - 0.446ms returns 0x00000000
T2504 147611:973.519 JLINK_ReadReg(R1)
T2504 147611:973.530 - 0.014ms returns 0x00000000
T2504 147611:973.540 JLINK_ReadReg(R2)
T2504 147611:973.549 - 0.012ms returns 0x00000000
T2504 147611:973.558 JLINK_ReadReg(R3)
T2504 147611:973.567 - 0.012ms returns 0x00000000
T2504 147611:973.576 JLINK_ReadReg(R4)
T2504 147611:973.584 - 0.012ms returns 0x00000000
T2504 147611:973.594 JLINK_ReadReg(R5)
T2504 147611:973.602 - 0.012ms returns 0x00000000
T2504 147611:973.612 JLINK_ReadReg(R6)
T2504 147611:973.620 - 0.012ms returns 0x00000000
T2504 147611:973.630 JLINK_ReadReg(R7)
T2504 147611:973.638 - 0.011ms returns 0x00000000
T2504 147611:973.647 JLINK_ReadReg(R8)
T2504 147611:973.655 - 0.011ms returns 0x00000000
T2504 147611:973.665 JLINK_ReadReg(R9)
T2504 147611:973.673 - 0.012ms returns 0x00000000
T2504 147611:973.683 JLINK_ReadReg(R10)
T2504 147611:973.691 - 0.012ms returns 0x00000000
T2504 147611:973.700 JLINK_ReadReg(R11)
T2504 147611:973.708 - 0.012ms returns 0x00000000
T2504 147611:973.718 JLINK_ReadReg(R12)
T2504 147611:973.726 - 0.012ms returns 0x00000000
T2504 147611:973.736 JLINK_ReadReg(R13 (SP))
T2504 147611:973.744 - 0.012ms returns 0x20007058
T2504 147611:973.754 JLINK_ReadReg(R14)
T2504 147611:973.766 - 0.015ms returns 0xFFFFFFFF
T2504 147611:973.775 JLINK_ReadReg(R15 (PC))
T2504 147611:973.784 - 0.012ms returns 0x08000254
T2504 147611:973.800 JLINK_ReadReg(XPSR)
T2504 147611:973.809 - 0.012ms returns 0x01000000
T2504 147611:973.820 JLINK_ReadReg(MSP)
T2504 147611:973.828 - 0.012ms returns 0x20007058
T2504 147611:973.839 JLINK_ReadReg(PSP)
T2504 147611:973.847 - 0.012ms returns 0x00000000
T2504 147611:973.858 JLINK_ReadReg(CFBP)
T2504 147611:973.866 - 0.012ms returns 0x00000000
T2504 147611:973.877 JLINK_ReadReg(FPSCR)
T2504 147611:978.647 - 4.784ms returns 0x00000000
T2504 147611:978.675 JLINK_ReadReg(FPS0)
T2504 147611:978.687 - 0.016ms returns 0x00000000
T2504 147611:978.699 JLINK_ReadReg(FPS1)
T2504 147611:978.708 - 0.013ms returns 0x00000000
T2504 147611:978.720 JLINK_ReadReg(FPS2)
T2504 147611:978.728 - 0.012ms returns 0x00000000
T2504 147611:978.740 JLINK_ReadReg(FPS3)
T2504 147611:978.748 - 0.012ms returns 0x00000000
T2504 147611:978.760 JLINK_ReadReg(FPS4)
T2504 147611:978.773 - 0.016ms returns 0x00000000
T2504 147611:978.784 JLINK_ReadReg(FPS5)
T2504 147611:978.793 - 0.012ms returns 0x00000000
T2504 147611:978.804 JLINK_ReadReg(FPS6)
T2504 147611:978.812 - 0.012ms returns 0x00000000
T2504 147611:978.823 JLINK_ReadReg(FPS7)
T2504 147611:978.832 - 0.012ms returns 0x00000000
T2504 147611:978.843 JLINK_ReadReg(FPS8)
T2504 147611:978.851 - 0.012ms returns 0x00000000
T2504 147611:978.862 JLINK_ReadReg(FPS9)
T2504 147611:978.871 - 0.012ms returns 0x00000000
T2504 147611:978.882 JLINK_ReadReg(FPS10)
T2504 147611:978.891 - 0.012ms returns 0x00000000
T2504 147611:978.902 JLINK_ReadReg(FPS11)
T2504 147611:978.970 - 0.268ms returns 0x00000000
T2504 147611:979.181 JLINK_ReadReg(FPS12)
T2504 147611:979.194 - 0.018ms returns 0x00000000
T2504 147611:979.208 JLINK_ReadReg(FPS13)
T2504 147611:979.217 - 0.012ms returns 0x00000000
T2504 147611:979.231 JLINK_ReadReg(FPS14)
T2504 147611:979.251 - 0.024ms returns 0x00000000
T2504 147611:979.263 JLINK_ReadReg(FPS15)
T2504 147611:979.271 - 0.012ms returns 0x00000000
T2504 147611:979.282 JLINK_ReadReg(FPS16)
T2504 147611:979.290 - 0.012ms returns 0x00000000
T2504 147611:979.301 JLINK_ReadReg(FPS17)
T2504 147611:979.309 - 0.012ms returns 0x00000000
T2504 147611:979.320 JLINK_ReadReg(FPS18)
T2504 147611:979.329 - 0.012ms returns 0x00000000
T2504 147611:979.340 JLINK_ReadReg(FPS19)
T2504 147611:979.348 - 0.012ms returns 0x00000000
T2504 147611:979.366 JLINK_ReadReg(FPS20)
T2504 147611:979.376 - 0.014ms returns 0x00000000
T2504 147611:979.389 JLINK_ReadReg(FPS21)
T2504 147611:979.399 - 0.014ms returns 0x00000000
T2504 147611:979.412 JLINK_ReadReg(FPS22)
T2504 147611:979.421 - 0.013ms returns 0x00000000
T2504 147611:979.433 JLINK_ReadReg(FPS23)
T2504 147611:979.443 - 0.014ms returns 0x00000000
T2504 147611:979.455 JLINK_ReadReg(FPS24)
T2504 147611:979.465 - 0.013ms returns 0x00000000
T2504 147611:979.477 JLINK_ReadReg(FPS25)
T2504 147611:979.486 - 0.013ms returns 0x00000000
T2504 147611:979.499 JLINK_ReadReg(FPS26)
T2504 147611:979.508 - 0.013ms returns 0x00000000
T2504 147611:979.521 JLINK_ReadReg(FPS27)
T2504 147611:979.530 - 0.013ms returns 0x00000000
T2504 147611:979.542 JLINK_ReadReg(FPS28)
T2504 147611:979.552 - 0.014ms returns 0x00000000
T2504 147611:979.564 JLINK_ReadReg(FPS29)
T2504 147611:979.573 - 0.014ms returns 0x00000000
T2504 147611:979.586 JLINK_ReadReg(FPS30)
T2504 147611:979.595 - 0.013ms returns 0x00000000
T2504 147611:979.608 JLINK_ReadReg(FPS31)
T2504 147611:979.617 - 0.013ms returns 0x00000000
T2504 147612:005.766 JLINK_ReadMemEx(0x200006CF, 0xB Bytes, Flags = 0x02000000)
T2504 147612:005.793   CPU_ReadMem(64 bytes @ 0x200006C0)
T2504 147612:006.912    -- Updating C cache (64 bytes @ 0x200006C0)
T2504 147612:006.933    -- Read from C cache (11 bytes @ 0x200006CF)
T2504 147612:006.947   Data:  21 05 38 A9 12 F9 0A 1D 40 BD F6
T2504 147612:006.964 - 1.206ms returns 11 (0xB)
T2504 147612:076.618 JLINK_ReadMemEx(0x200006DA, 0x14 Bytes, Flags = 0x02000000)
T2504 147612:076.682    -- Read from C cache (20 bytes @ 0x200006DA)
T2504 147612:076.693   Data:  00 04 20 00 01 A8 00 00 00 00 00 00 00 00 00 00 ...
T2504 147612:076.702 - 0.086ms returns 20 (0x14)
T2504 147612:093.471 JLINK_ReadMemEx(0x20000410, 0x8 Bytes, Flags = 0x02000000)
T2504 147612:093.498   CPU_ReadMem(64 bytes @ 0x20000400)
T2504 147612:094.585    -- Updating C cache (64 bytes @ 0x20000400)
T2504 147612:094.607    -- Read from C cache (8 bytes @ 0x20000410)
T2504 147612:094.619   Data:  FF FF FF FF FF FF FF FF
T2504 147612:094.630 - 1.162ms returns 8 (0x8)
T2504 147612:208.912 JLINK_ReadMemEx(0x200006C4, 0xB Bytes, Flags = 0x02000000)
T2504 147612:208.938    -- Read from C cache (11 bytes @ 0x200006C4)
T2504 147612:208.946   Data:  21 28 0E 00 00 00 00 00 00 B1 E9
T2504 147612:208.953 - 0.043ms returns 11 (0xB)
T2504 147612:250.791 JLINK_ReadMemEx(0x2000404C, 0x1 Bytes, Flags = 0x02000000)
T2504 147612:250.820   CPU_ReadMem(64 bytes @ 0x20004040)
T2504 147612:251.871    -- Updating C cache (64 bytes @ 0x20004040)
T2504 147612:251.894    -- Read from C cache (1 bytes @ 0x2000404C)
T2504 147612:251.906   Data:  00
T2504 147612:251.918 - 1.131ms returns 1 (0x1)
T35C8 147612:355.878 JLINK_ReadMemEx(0x08000254, 0x2 Bytes, Flags = 0x02000000)
T35C8 147612:355.918    -- Read from C cache (2 bytes @ 0x08000254)
T35C8 147612:355.932   Data:  06 48
T35C8 147612:355.945 - 0.070ms returns 2 (0x2)
T35C8 147612:355.956 JLINK_HasError()
T35C8 147612:355.976 JLINK_SetBPEx(Addr = 0x080092CC, Type = 0xFFFFFFF2)
T35C8 147612:355.989 - 0.017ms returns 0x00000001
T35C8 147612:355.999 JLINK_HasError()
T35C8 147612:356.009 JLINK_HasError()
T35C8 147612:356.021 JLINK_Go()
T35C8 147612:356.071   CPU_WriteMem(4 bytes @ 0xE0002000)
T35C8 147612:356.572   CPU_ReadMem(4 bytes @ 0xE0001000)
T35C8 147612:357.035   CPU_WriteMem(4 bytes @ 0xE0002008)
T35C8 147612:357.049   CPU_WriteMem(4 bytes @ 0xE000200C)
T35C8 147612:357.061   CPU_WriteMem(4 bytes @ 0xE0002010)
T35C8 147612:357.068   CPU_WriteMem(4 bytes @ 0xE0002014)
T35C8 147612:357.075   CPU_WriteMem(4 bytes @ 0xE0002018)
T35C8 147612:357.081   CPU_WriteMem(4 bytes @ 0xE000201C)
T35C8 147612:359.452   CPU_WriteMem(4 bytes @ 0xE0001004)
T35C8 147612:360.480 - 4.469ms
T35C8 147612:460.668 JLINK_HasError()
T35C8 147612:460.691 JLINK_IsHalted()
T35C8 147612:463.731 - 3.051ms returns TRUE
T35C8 147612:463.753 JLINK_HasError()
T35C8 147612:463.765 JLINK_Halt()
T35C8 147612:463.773 - 0.011ms returns 0x00
T35C8 147612:463.783 JLINK_IsHalted()
T35C8 147612:463.791 - 0.011ms returns TRUE
T35C8 147612:463.801 JLINK_IsHalted()
T35C8 147612:463.809 - 0.010ms returns TRUE
T35C8 147612:463.819 JLINK_IsHalted()
T35C8 147612:463.826 - 0.010ms returns TRUE
T35C8 147612:463.837 JLINK_HasError()
T35C8 147612:463.847 JLINK_ReadReg(R15 (PC))
T35C8 147612:463.857 - 0.014ms returns 0x080092CC
T35C8 147612:463.868 JLINK_ReadReg(XPSR)
T35C8 147612:463.875 - 0.011ms returns 0x61000000
T35C8 147612:463.909 JLINK_HasError()
T35C8 147612:463.924 JLINK_ClrBPEx(BPHandle = 0x00000001)
T35C8 147612:463.933 - 0.012ms returns 0x00
T35C8 147612:463.942 JLINK_HasError()
T35C8 147612:463.951 JLINK_HasError()
T35C8 147612:463.960 JLINK_ReadMemU32(0xE000ED30, 0x1 Items)
T35C8 147612:463.975   CPU_ReadMem(4 bytes @ 0xE000ED30)
T35C8 147612:464.376   Data:  03 00 00 00
T35C8 147612:464.393 - 0.436ms returns 1 (0x1)
T35C8 147612:464.405 JLINK_ReadMemU32(0xE0001028, 0x1 Items)
T35C8 147612:464.417   CPU_ReadMem(4 bytes @ 0xE0001028)
T35C8 147612:464.809   Data:  00 00 00 00
T35C8 147612:464.821   Debug reg: DWT_FUNC[0]
T35C8 147612:464.827 - 0.425ms returns 1 (0x1)
T35C8 147612:464.835 JLINK_ReadMemU32(0xE0001038, 0x1 Items)
T35C8 147612:464.843   CPU_ReadMem(4 bytes @ 0xE0001038)
T35C8 147612:465.236   Data:  00 02 00 00
T35C8 147612:465.245   Debug reg: DWT_FUNC[1]
T35C8 147612:465.251 - 0.418ms returns 1 (0x1)
T35C8 147612:465.258 JLINK_ReadMemU32(0xE0001048, 0x1 Items)
T35C8 147612:465.265   CPU_ReadMem(4 bytes @ 0xE0001048)
T35C8 147612:465.642   Data:  00 00 00 00
T35C8 147612:465.653   Debug reg: DWT_FUNC[2]
T35C8 147612:465.660 - 0.404ms returns 1 (0x1)
T35C8 147612:465.667 JLINK_ReadMemU32(0xE0001058, 0x1 Items)
T35C8 147612:465.675   CPU_ReadMem(4 bytes @ 0xE0001058)
T35C8 147612:466.056   Data:  00 00 00 00
T35C8 147612:466.069   Debug reg: DWT_FUNC[3]
T35C8 147612:466.076 - 0.411ms returns 1 (0x1)
T35C8 147612:466.108 JLINK_HasError()
T35C8 147612:466.116 JLINK_ReadReg(R0)
T35C8 147612:466.123 - 0.009ms returns 0x080092CD
T35C8 147612:466.129 JLINK_ReadReg(R1)
T35C8 147612:466.134 - 0.007ms returns 0x20007058
T35C8 147612:466.139 JLINK_ReadReg(R2)
T35C8 147612:466.144 - 0.007ms returns 0x00000000
T35C8 147612:466.150 JLINK_ReadReg(R3)
T35C8 147612:466.154 - 0.006ms returns 0x08008C29
T35C8 147612:466.160 JLINK_ReadReg(R4)
T35C8 147612:466.165 - 0.009ms returns 0x0800AFCC
T35C8 147612:466.173 JLINK_ReadReg(R5)
T35C8 147612:466.178 - 0.007ms returns 0x0800AFCC
T35C8 147612:466.183 JLINK_ReadReg(R6)
T35C8 147612:466.188 - 0.006ms returns 0x00000000
T35C8 147612:466.193 JLINK_ReadReg(R7)
T35C8 147612:466.198 - 0.007ms returns 0x00000000
T35C8 147612:466.204 JLINK_ReadReg(R8)
T35C8 147612:466.208 - 0.006ms returns 0x00000000
T35C8 147612:466.214 JLINK_ReadReg(R9)
T35C8 147612:466.218 - 0.006ms returns 0x00000000
T35C8 147612:466.224 JLINK_ReadReg(R10)
T35C8 147612:466.229 - 0.006ms returns 0x00000000
T35C8 147612:466.235 JLINK_ReadReg(R11)
T35C8 147612:466.239 - 0.006ms returns 0x00000000
T35C8 147612:466.245 JLINK_ReadReg(R12)
T35C8 147612:466.249 - 0.007ms returns 0x00000000
T35C8 147612:466.255 JLINK_ReadReg(R13 (SP))
T35C8 147612:466.260 - 0.007ms returns 0x20007058
T35C8 147612:466.266 JLINK_ReadReg(R14)
T35C8 147612:466.273 - 0.009ms returns 0x08000D7D
T35C8 147612:466.279 JLINK_ReadReg(R15 (PC))
T35C8 147612:466.283 - 0.007ms returns 0x080092CC
T35C8 147612:466.289 JLINK_ReadReg(XPSR)
T35C8 147612:466.297 - 0.011ms returns 0x61000000
T35C8 147612:466.304 JLINK_ReadReg(MSP)
T35C8 147612:466.309 - 0.006ms returns 0x20007058
T35C8 147612:466.314 JLINK_ReadReg(PSP)
T35C8 147612:466.319 - 0.006ms returns 0x00000000
T35C8 147612:466.325 JLINK_ReadReg(CFBP)
T35C8 147612:466.329 - 0.007ms returns 0x00000000
T35C8 147612:466.335 JLINK_ReadReg(FPSCR)
T35C8 147612:471.032 - 4.705ms returns 0x00000000
T35C8 147612:471.047 JLINK_ReadReg(FPS0)
T35C8 147612:471.054 - 0.010ms returns 0x00000000
T35C8 147612:471.060 JLINK_ReadReg(FPS1)
T35C8 147612:471.065 - 0.007ms returns 0x00000000
T35C8 147612:471.071 JLINK_ReadReg(FPS2)
T35C8 147612:471.075 - 0.006ms returns 0x00000000
T35C8 147612:471.080 JLINK_ReadReg(FPS3)
T35C8 147612:471.085 - 0.006ms returns 0x00000000
T35C8 147612:471.090 JLINK_ReadReg(FPS4)
T35C8 147612:471.095 - 0.006ms returns 0x00000000
T35C8 147612:471.100 JLINK_ReadReg(FPS5)
T35C8 147612:471.105 - 0.007ms returns 0x00000000
T35C8 147612:471.111 JLINK_ReadReg(FPS6)
T35C8 147612:471.115 - 0.006ms returns 0x00000000
T35C8 147612:471.120 JLINK_ReadReg(FPS7)
T35C8 147612:471.125 - 0.006ms returns 0x00000000
T35C8 147612:471.130 JLINK_ReadReg(FPS8)
T35C8 147612:471.135 - 0.006ms returns 0x00000000
T35C8 147612:471.140 JLINK_ReadReg(FPS9)
T35C8 147612:471.145 - 0.006ms returns 0x00000000
T35C8 147612:471.150 JLINK_ReadReg(FPS10)
T35C8 147612:471.155 - 0.007ms returns 0x00000000
T35C8 147612:471.160 JLINK_ReadReg(FPS11)
T35C8 147612:471.165 - 0.006ms returns 0x00000000
T35C8 147612:471.170 JLINK_ReadReg(FPS12)
T35C8 147612:471.175 - 0.006ms returns 0x00000000
T35C8 147612:471.180 JLINK_ReadReg(FPS13)
T35C8 147612:471.185 - 0.006ms returns 0x00000000
T35C8 147612:471.190 JLINK_ReadReg(FPS14)
T35C8 147612:471.195 - 0.006ms returns 0x00000000
T35C8 147612:471.200 JLINK_ReadReg(FPS15)
T35C8 147612:471.205 - 0.006ms returns 0x00000000
T35C8 147612:471.210 JLINK_ReadReg(FPS16)
T35C8 147612:471.215 - 0.006ms returns 0x00000000
T35C8 147612:471.220 JLINK_ReadReg(FPS17)
T35C8 147612:471.225 - 0.006ms returns 0x00000000
T35C8 147612:471.230 JLINK_ReadReg(FPS18)
T35C8 147612:471.235 - 0.006ms returns 0x00000000
T35C8 147612:471.240 JLINK_ReadReg(FPS19)
T35C8 147612:471.244 - 0.006ms returns 0x00000000
T35C8 147612:471.250 JLINK_ReadReg(FPS20)
T35C8 147612:471.255 - 0.006ms returns 0x00000000
T35C8 147612:471.260 JLINK_ReadReg(FPS21)
T35C8 147612:471.265 - 0.006ms returns 0x00000000
T35C8 147612:471.270 JLINK_ReadReg(FPS22)
T35C8 147612:471.274 - 0.006ms returns 0x00000000
T35C8 147612:471.280 JLINK_ReadReg(FPS23)
T35C8 147612:471.284 - 0.006ms returns 0x00000000
T35C8 147612:471.290 JLINK_ReadReg(FPS24)
T35C8 147612:471.294 - 0.006ms returns 0x00000000
T35C8 147612:471.300 JLINK_ReadReg(FPS25)
T35C8 147612:471.304 - 0.006ms returns 0x00000000
T35C8 147612:471.310 JLINK_ReadReg(FPS26)
T35C8 147612:471.314 - 0.006ms returns 0x00000000
T35C8 147612:471.320 JLINK_ReadReg(FPS27)
T35C8 147612:471.324 - 0.006ms returns 0x00000000
T35C8 147612:471.329 JLINK_ReadReg(FPS28)
T35C8 147612:471.334 - 0.006ms returns 0x00000000
T35C8 147612:471.339 JLINK_ReadReg(FPS29)
T35C8 147612:471.344 - 0.006ms returns 0x00000000
T35C8 147612:471.349 JLINK_ReadReg(FPS30)
T35C8 147612:471.354 - 0.006ms returns 0x00000000
T35C8 147612:471.359 JLINK_ReadReg(FPS31)
T35C8 147612:471.364 - 0.006ms returns 0x00000000
T2504 147612:472.325 JLINK_HasError()
T2504 147612:472.337 JLINK_ReadMemU32(0xE0001004, 0x1 Items)
T2504 147612:472.348   CPU_ReadMem(4 bytes @ 0xE0001004)
T2504 147612:472.740   Data:  AE 4E 01 00
T2504 147612:472.751   Debug reg: DWT_CYCCNT
T2504 147612:472.758 - 0.423ms returns 1 (0x1)
T2504 147612:472.889 JLINK_ReadMemEx(0x200006CF, 0xB Bytes, Flags = 0x02000000)
T2504 147612:472.900   CPU_ReadMem(64 bytes @ 0x200006C0)
T2504 147612:473.891    -- Updating C cache (64 bytes @ 0x200006C0)
T2504 147612:473.912    -- Read from C cache (11 bytes @ 0x200006CF)
T2504 147612:473.925   Data:  00 00 00 00 00 00 00 00 00 00 00
T2504 147612:473.937 - 1.055ms returns 11 (0xB)
T2504 147612:476.213 JLINK_ReadMemEx(0x200006DA, 0x14 Bytes, Flags = 0x02000000)
T2504 147612:476.227    -- Read from C cache (20 bytes @ 0x200006DA)
T2504 147612:476.235   Data:  00 00 00 00 00 00 00 00 00 00 00 00 00 00 00 00 ...
T2504 147612:476.241 - 0.030ms returns 20 (0x14)
T2504 147612:476.253 JLINK_ReadMemEx(0x20000410, 0x8 Bytes, Flags = 0x02000000)
T2504 147612:476.262   CPU_ReadMem(64 bytes @ 0x20000400)
T2504 147612:477.250    -- Updating C cache (64 bytes @ 0x20000400)
T2504 147612:477.260    -- Read from C cache (8 bytes @ 0x20000410)
T2504 147612:477.267   Data:  00 00 00 00 00 00 00 00
T2504 147612:477.274 - 1.023ms returns 8 (0x8)
T2504 147612:478.857 JLINK_ReadMemEx(0x200006C4, 0xB Bytes, Flags = 0x02000000)
T2504 147612:478.874    -- Read from C cache (11 bytes @ 0x200006C4)
T2504 147612:478.881   Data:  00 00 00 00 00 00 00 00 00 00 00
T2504 147612:478.888 - 0.032ms returns 11 (0xB)
T2504 147612:479.186 JLINK_ReadMemEx(0x2000404C, 0x1 Bytes, Flags = 0x02000000)
T2504 147612:479.199   CPU_ReadMem(64 bytes @ 0x20004040)
T2504 147612:480.195    -- Updating C cache (64 bytes @ 0x20004040)
T2504 147612:480.211    -- Read from C cache (1 bytes @ 0x2000404C)
T2504 147612:480.220   Data:  00
T2504 147612:480.229 - 1.045ms returns 1 (0x1)
T2504 147612:904.253 JLINK_HasError()
T2504 147612:904.278 JLINK_SetResetType(JLINKARM_CM3_RESET_TYPE_NORMAL)
T2504 147612:904.285 - 0.009ms returns JLINKARM_CM3_RESET_TYPE_NORMAL
T2504 147612:904.292 JLINK_Reset()
T2504 147612:904.312   CPU_WriteMem(4 bytes @ 0xE000EDF0)
T2504 147612:904.759   CPU_WriteMem(4 bytes @ 0xE000EDFC)
T2504 147612:905.224   Reset: Halt core after reset via DEMCR.VC_CORERESET.
T2504 147612:905.625   Reset: Reset device via AIRCR.SYSRESETREQ.
T2504 147612:905.637   CPU_WriteMem(4 bytes @ 0xE000ED0C)
T2504 147612:959.313   CPU_ReadMem(4 bytes @ 0xE000EDF0)
T2504 147612:959.807   CPU_ReadMem(4 bytes @ 0xE000EDF0)
T2504 147612:960.267   CPU_WriteMem(4 bytes @ 0xE000EDF0)
T2504 147612:960.813   CPU_WriteMem(4 bytes @ 0xE000EDFC)
T2504 147612:967.089   CPU_ReadMem(4 bytes @ 0xE000EDF0)
T2504 147612:970.681   CPU_WriteMem(4 bytes @ 0xE0002000)
T2504 147612:971.168   CPU_ReadMem(4 bytes @ 0xE000EDFC)
T2504 147612:971.599   CPU_ReadMem(4 bytes @ 0xE0001000)
T2504 147612:972.035 - 67.749ms
T2504 147612:972.116 JLINK_HasError()
T2504 147612:972.137 JLINK_ReadReg(R15 (PC))
T2504 147612:972.149 - 0.016ms returns 0x08000254
T2504 147612:972.159 JLINK_ReadReg(XPSR)
T2504 147612:972.168 - 0.012ms returns 0x01000000
T2504 147612:972.216 JLINK_HasError()
T2504 147612:972.226 JLINK_ReadReg(R0)
T2504 147612:972.234 - 0.011ms returns 0x00000000
T2504 147612:972.243 JLINK_ReadReg(R1)
T2504 147612:972.251 - 0.011ms returns 0x00000000
T2504 147612:972.260 JLINK_ReadReg(R2)
T2504 147612:972.268 - 0.011ms returns 0x00000000
T2504 147612:972.277 JLINK_ReadReg(R3)
T2504 147612:972.284 - 0.011ms returns 0x00000000
T2504 147612:972.293 JLINK_ReadReg(R4)
T2504 147612:972.301 - 0.011ms returns 0x00000000
T2504 147612:972.310 JLINK_ReadReg(R5)
T2504 147612:972.317 - 0.011ms returns 0x00000000
T2504 147612:972.326 JLINK_ReadReg(R6)
T2504 147612:972.333 - 0.011ms returns 0x00000000
T2504 147612:972.342 JLINK_ReadReg(R7)
T2504 147612:972.350 - 0.011ms returns 0x00000000
T2504 147612:972.358 JLINK_ReadReg(R8)
T2504 147612:972.366 - 0.011ms returns 0x00000000
T2504 147612:972.375 JLINK_ReadReg(R9)
T2504 147612:972.382 - 0.011ms returns 0x00000000
T2504 147612:972.391 JLINK_ReadReg(R10)
T2504 147612:972.399 - 0.011ms returns 0x00000000
T2504 147612:972.408 JLINK_ReadReg(R11)
T2504 147612:972.415 - 0.010ms returns 0x00000000
T2504 147612:972.424 JLINK_ReadReg(R12)
T2504 147612:972.431 - 0.011ms returns 0x00000000
T2504 147612:972.440 JLINK_ReadReg(R13 (SP))
T2504 147612:972.447 - 0.011ms returns 0x20007058
T2504 147612:972.456 JLINK_ReadReg(R14)
T2504 147612:972.464 - 0.011ms returns 0xFFFFFFFF
T2504 147612:972.473 JLINK_ReadReg(R15 (PC))
T2504 147612:972.480 - 0.010ms returns 0x08000254
T2504 147612:972.544 JLINK_ReadReg(XPSR)
T2504 147612:972.555 - 0.014ms returns 0x01000000
T2504 147612:972.564 JLINK_ReadReg(MSP)
T2504 147612:972.572 - 0.011ms returns 0x20007058
T2504 147612:972.581 JLINK_ReadReg(PSP)
T2504 147612:972.588 - 0.011ms returns 0x00000000
T2504 147612:972.597 JLINK_ReadReg(CFBP)
T2504 147612:972.605 - 0.010ms returns 0x00000000
T2504 147612:972.614 JLINK_ReadReg(FPSCR)
T2504 147612:977.724 - 5.121ms returns 0x00000000
T2504 147612:977.743 JLINK_ReadReg(FPS0)
T2504 147612:977.754 - 0.014ms returns 0x00000000
T2504 147612:977.764 JLINK_ReadReg(FPS1)
T2504 147612:977.771 - 0.011ms returns 0x00000000
T2504 147612:977.780 JLINK_ReadReg(FPS2)
T2504 147612:977.788 - 0.011ms returns 0x00000000
T2504 147612:977.797 JLINK_ReadReg(FPS3)
T2504 147612:977.805 - 0.011ms returns 0x00000000
T2504 147612:977.813 JLINK_ReadReg(FPS4)
T2504 147612:977.821 - 0.011ms returns 0x00000000
T2504 147612:977.830 JLINK_ReadReg(FPS5)
T2504 147612:977.837 - 0.011ms returns 0x00000000
T2504 147612:977.846 JLINK_ReadReg(FPS6)
T2504 147612:977.853 - 0.011ms returns 0x00000000
T2504 147612:977.862 JLINK_ReadReg(FPS7)
T2504 147612:977.870 - 0.011ms returns 0x00000000
T2504 147612:977.879 JLINK_ReadReg(FPS8)
T2504 147612:977.886 - 0.011ms returns 0x00000000
T2504 147612:977.895 JLINK_ReadReg(FPS9)
T2504 147612:977.902 - 0.011ms returns 0x00000000
T2504 147612:977.911 JLINK_ReadReg(FPS10)
T2504 147612:977.919 - 0.011ms returns 0x00000000
T2504 147612:977.928 JLINK_ReadReg(FPS11)
T2504 147612:977.935 - 0.011ms returns 0x00000000
T2504 147612:977.944 JLINK_ReadReg(FPS12)
T2504 147612:977.951 - 0.011ms returns 0x00000000
T2504 147612:977.960 JLINK_ReadReg(FPS13)
T2504 147612:977.967 - 0.011ms returns 0x00000000
T2504 147612:977.976 JLINK_ReadReg(FPS14)
T2504 147612:977.985 - 0.012ms returns 0x00000000
T2504 147612:977.994 JLINK_ReadReg(FPS15)
T2504 147612:978.001 - 0.011ms returns 0x00000000
T2504 147612:978.010 JLINK_ReadReg(FPS16)
T2504 147612:978.017 - 0.010ms returns 0x00000000
T2504 147612:978.026 JLINK_ReadReg(FPS17)
T2504 147612:978.034 - 0.011ms returns 0x00000000
T2504 147612:978.042 JLINK_ReadReg(FPS18)
T2504 147612:978.050 - 0.011ms returns 0x00000000
T2504 147612:978.059 JLINK_ReadReg(FPS19)
T2504 147612:978.066 - 0.011ms returns 0x00000000
T2504 147612:978.075 JLINK_ReadReg(FPS20)
T2504 147612:978.082 - 0.011ms returns 0x00000000
T2504 147612:978.091 JLINK_ReadReg(FPS21)
T2504 147612:978.099 - 0.011ms returns 0x00000000
T2504 147612:978.108 JLINK_ReadReg(FPS22)
T2504 147612:978.115 - 0.010ms returns 0x00000000
T2504 147612:978.124 JLINK_ReadReg(FPS23)
T2504 147612:978.131 - 0.011ms returns 0x00000000
T2504 147612:978.140 JLINK_ReadReg(FPS24)
T2504 147612:978.148 - 0.011ms returns 0x00000000
T2504 147612:978.156 JLINK_ReadReg(FPS25)
T2504 147612:978.164 - 0.011ms returns 0x00000000
T2504 147612:978.173 JLINK_ReadReg(FPS26)
T2504 147612:978.180 - 0.011ms returns 0x00000000
T2504 147612:978.189 JLINK_ReadReg(FPS27)
T2504 147612:978.196 - 0.011ms returns 0x00000000
T2504 147612:978.205 JLINK_ReadReg(FPS28)
T2504 147612:978.213 - 0.011ms returns 0x00000000
T2504 147612:978.221 JLINK_ReadReg(FPS29)
T2504 147612:978.229 - 0.011ms returns 0x00000000
T2504 147612:978.238 JLINK_ReadReg(FPS30)
T2504 147612:978.245 - 0.011ms returns 0x00000000
T2504 147612:978.254 JLINK_ReadReg(FPS31)
T2504 147612:978.261 - 0.011ms returns 0x00000000
T2504 147612:978.271 JLINK_HasError()
T2504 147612:978.280 JLINK_ReadMemU32(0xE0001004, 0x1 Items)
T2504 147612:978.294   Data:  00 00 00 00
T2504 147612:978.306   Debug reg: DWT_CYCCNT
T2504 147612:978.317 - 0.040ms returns 1 (0x1)
T2504 147612:986.297 JLINK_ReadMemEx(0x08000254, 0x3C Bytes, Flags = 0x02000000)
T2504 147612:986.322   CPU_ReadMem(128 bytes @ 0x08000240)
T2504 147612:988.041    -- Updating C cache (128 bytes @ 0x08000240)
T2504 147612:988.062    -- Read from C cache (60 bytes @ 0x08000254)
T2504 147612:988.076   Data:  06 48 80 47 06 48 00 47 FE E7 FE E7 FE E7 FE E7 ...
T2504 147612:988.088 - 1.795ms returns 60 (0x3C)
T2504 147613:072.593 JLINK_ReadMemEx(0x200006CF, 0xB Bytes, Flags = 0x02000000)
T2504 147613:072.631   CPU_ReadMem(64 bytes @ 0x200006C0)
T2504 147613:073.646    -- Updating C cache (64 bytes @ 0x200006C0)
T2504 147613:073.662    -- Read from C cache (11 bytes @ 0x200006CF)
T2504 147613:073.671   Data:  00 00 00 00 00 00 00 00 00 00 00
T2504 147613:073.679 - 1.088ms returns 11 (0xB)
T2504 147613:075.675 JLINK_ReadMemEx(0x200006DA, 0x14 Bytes, Flags = 0x02000000)
T2504 147613:075.690    -- Read from C cache (20 bytes @ 0x200006DA)
T2504 147613:075.699   Data:  00 00 00 00 00 00 00 00 00 00 00 00 00 00 00 00 ...
T2504 147613:075.706 - 0.033ms returns 20 (0x14)
T2504 147613:075.719 JLINK_ReadMemEx(0x20000410, 0x8 Bytes, Flags = 0x02000000)
T2504 147613:075.728   CPU_ReadMem(64 bytes @ 0x20000400)
T2504 147613:076.732    -- Updating C cache (64 bytes @ 0x20000400)
T2504 147613:076.747    -- Read from C cache (8 bytes @ 0x20000410)
T2504 147613:076.755   Data:  00 00 00 00 00 00 00 00
T2504 147613:076.762 - 1.046ms returns 8 (0x8)
T2504 147613:077.543 JLINK_ReadMemEx(0x200006C4, 0xB Bytes, Flags = 0x02000000)
T2504 147613:077.561    -- Read from C cache (11 bytes @ 0x200006C4)
T2504 147613:077.571   Data:  00 00 00 00 00 00 00 00 00 00 00
T2504 147613:077.580 - 0.039ms returns 11 (0xB)
T2504 147613:077.595 JLINK_ReadMemEx(0x2000404C, 0x1 Bytes, Flags = 0x02000000)
T2504 147613:077.606   CPU_ReadMem(64 bytes @ 0x20004040)
T2504 147613:078.631    -- Updating C cache (64 bytes @ 0x20004040)
T2504 147613:078.656    -- Read from C cache (1 bytes @ 0x2000404C)
T2504 147613:078.670   Data:  00
T2504 147613:078.684 - 1.093ms returns 1 (0x1)
T35C8 147613:373.086 JLINK_ReadMemEx(0x08000254, 0x2 Bytes, Flags = 0x02000000)
T35C8 147613:373.120    -- Read from C cache (2 bytes @ 0x08000254)
T35C8 147613:373.134   Data:  06 48
T35C8 147613:373.146 - 0.064ms returns 2 (0x2)
T35C8 147613:373.158 JLINK_HasError()
T35C8 147613:373.171 JLINK_HasError()
T35C8 147613:373.181 JLINK_Go()
T35C8 147613:373.212   CPU_ReadMem(4 bytes @ 0xE0001000)
T35C8 147613:373.658   CPU_WriteMem(4 bytes @ 0xE0002008)
T35C8 147613:373.676   CPU_WriteMem(4 bytes @ 0xE000200C)
T35C8 147613:373.688   CPU_WriteMem(4 bytes @ 0xE0002010)
T35C8 147613:373.701   CPU_WriteMem(4 bytes @ 0xE0002014)
T35C8 147613:373.712   CPU_WriteMem(4 bytes @ 0xE0002018)
T35C8 147613:373.724   CPU_WriteMem(4 bytes @ 0xE000201C)
T35C8 147613:376.045   CPU_WriteMem(4 bytes @ 0xE0001004)
T35C8 147613:377.078 - 3.906ms
T35C8 147613:478.107 JLINK_HasError()
T35C8 147613:478.140 JLINK_IsHalted()
T35C8 147613:478.557 - 0.428ms returns FALSE
T35C8 147613:579.511 JLINK_HasError()
T35C8 147613:579.541 JLINK_IsHalted()
T35C8 147613:580.274 - 0.745ms returns FALSE
T35C8 147613:680.403 JLINK_HasError()
T35C8 147613:680.440 JLINK_IsHalted()
T35C8 147613:680.909 - 0.483ms returns FALSE
T35C8 147613:781.240 JLINK_HasError()
T35C8 147613:781.265 JLINK_IsHalted()
T35C8 147613:781.784 - 0.531ms returns FALSE
T35C8 147613:882.781 JLINK_HasError()
T35C8 147613:882.823 JLINK_HasError()
T35C8 147613:882.838 JLINK_ReadMemU32(0xE0001004, 0x1 Items)
T35C8 147613:882.864   CPU_ReadMem(4 bytes @ 0xE0001004)
T35C8 147613:883.374   Data:  28 95 0C 05
T35C8 147613:883.386   Debug reg: DWT_CYCCNT
T35C8 147613:883.395 - 0.563ms returns 1 (0x1)
T2504 147613:883.666 JLINK_ReadMemEx(0x200006CF, 0xB Bytes, Flags = 0x02000000)
T2504 147613:883.679   CPU_ReadMem(11 bytes @ 0x200006CF)
T2504 147613:884.550   Data:  00 00 00 00 00 00 00 00 00 00 00
T2504 147613:884.569 - 0.907ms returns 11 (0xB)
T2504 147613:886.946 JLINK_ReadMemEx(0x200006DA, 0x14 Bytes, Flags = 0x02000000)
T2504 147613:886.965   CPU_ReadMem(20 bytes @ 0x200006DA)
T2504 147613:887.940   Data:  00 04 20 00 01 A8 00 00 00 00 00 00 00 00 00 00 ...
T2504 147613:887.968 - 1.027ms returns 20 (0x14)
T2504 147613:888.000 JLINK_ReadMemEx(0x20000410, 0x8 Bytes, Flags = 0x02000000)
T2504 147613:888.016   CPU_ReadMem(8 bytes @ 0x20000410)
T2504 147613:888.501   Data:  00 00 00 00 00 00 00 00
T2504 147613:888.586 - 0.591ms returns 8 (0x8)
T2504 147613:889.606 JLINK_ReadMemEx(0x200006CF, 0xB Bytes, Flags = 0x02000000)
T2504 147613:889.624   CPU_ReadMem(11 bytes @ 0x200006CF)
T2504 147613:890.548   Data:  00 00 00 00 00 00 00 00 00 00 00
T2504 147613:890.575 - 0.974ms returns 11 (0xB)
T2504 147613:890.611 JLINK_ReadMemEx(0x200006C4, 0xB Bytes, Flags = 0x02000000)
T2504 147613:890.629   CPU_ReadMem(11 bytes @ 0x200006C4)
T2504 147613:891.513   Data:  00 00 00 00 00 00 00 00 00 00 00
T2504 147613:891.533 - 0.926ms returns 11 (0xB)
T2504 147613:891.568 JLINK_ReadMemEx(0x2000404C, 0x1 Bytes, Flags = 0x02000000)
T2504 147613:891.584   CPU_ReadMem(1 bytes @ 0x2000404C)
T2504 147613:892.057   Data:  00
T2504 147613:892.079 - 0.517ms returns 1 (0x1)
T35C8 147613:892.577 JLINK_IsHalted()
T35C8 147613:893.025 - 0.456ms returns FALSE
T35C8 147613:993.185 JLINK_HasError()
T35C8 147613:993.223 JLINK_IsHalted()
T35C8 147613:993.630 - 0.418ms returns FALSE
T35C8 147614:094.443 JLINK_HasError()
T35C8 147614:094.474 JLINK_IsHalted()
T35C8 147614:094.982 - 0.515ms returns FALSE
T35C8 147614:195.563 JLINK_HasError()
T35C8 147614:195.589 JLINK_IsHalted()
T35C8 147614:196.038 - 0.460ms returns FALSE
T35C8 147614:296.964 JLINK_HasError()
T35C8 147614:296.998 JLINK_IsHalted()
T35C8 147614:297.497 - 0.511ms returns FALSE
T35C8 147614:397.559 JLINK_HasError()
T35C8 147614:397.587 JLINK_HasError()
T35C8 147614:397.597 JLINK_ReadMemU32(0xE0001004, 0x1 Items)
T35C8 147614:397.617   Data:  28 95 0C 05
T35C8 147614:397.630   Debug reg: DWT_CYCCNT
T35C8 147614:397.640 - 0.047ms returns 1 (0x1)
T2504 147614:397.750 JLINK_ReadMemEx(0x200006CF, 0xB Bytes, Flags = 0x02000000)
T2504 147614:397.777   CPU_ReadMem(11 bytes @ 0x200006CF)
T2504 147614:398.755   Data:  00 00 00 00 00 00 00 00 00 00 00
T2504 147614:398.782 - 1.035ms returns 11 (0xB)
T2504 147614:401.152 JLINK_ReadMemEx(0x200006DA, 0x14 Bytes, Flags = 0x02000000)
T2504 147614:401.169   CPU_ReadMem(20 bytes @ 0x200006DA)
T2504 147614:402.304   Data:  00 04 20 00 01 A8 00 00 00 00 00 00 00 00 00 00 ...
T2504 147614:402.323 - 1.175ms returns 20 (0x14)
T2504 147614:402.366 JLINK_ReadMemEx(0x20000410, 0x8 Bytes, Flags = 0x02000000)
T2504 147614:402.381   CPU_ReadMem(8 bytes @ 0x20000410)
T2504 147614:402.853   Data:  00 00 00 00 00 00 00 00
T2504 147614:402.872 - 0.510ms returns 8 (0x8)
T2504 147614:403.819 JLINK_ReadMemEx(0x200006CF, 0xB Bytes, Flags = 0x02000000)
T2504 147614:403.840   CPU_ReadMem(11 bytes @ 0x200006CF)
T2504 147614:404.780   Data:  00 00 00 00 00 00 00 00 00 00 00
T2504 147614:404.799 - 0.983ms returns 11 (0xB)
T2504 147614:404.828 JLINK_ReadMemEx(0x200006C4, 0xB Bytes, Flags = 0x02000000)
T2504 147614:404.842   CPU_ReadMem(11 bytes @ 0x200006C4)
T2504 147614:405.729   Data:  00 00 00 00 00 00 00 00 00 00 00
T2504 147614:405.741 - 0.915ms returns 11 (0xB)
T2504 147614:405.779 JLINK_ReadMemEx(0x2000404C, 0x1 Bytes, Flags = 0x02000000)
T2504 147614:405.788   CPU_ReadMem(1 bytes @ 0x2000404C)
T2504 147614:406.259   Data:  00
T2504 147614:406.279 - 0.504ms returns 1 (0x1)
T35C8 147614:406.765 JLINK_IsHalted()
T35C8 147614:407.197 - 0.439ms returns FALSE
T35C8 147614:508.002 JLINK_HasError()
T35C8 147614:508.034 JLINK_IsHalted()
T35C8 147614:508.517 - 0.494ms returns FALSE
T35C8 147614:609.618 JLINK_HasError()
T35C8 147614:609.642 JLINK_IsHalted()
T35C8 147614:610.197 - 0.566ms returns FALSE
T35C8 147614:711.142 JLINK_HasError()
T35C8 147614:711.169 JLINK_IsHalted()
T35C8 147614:711.652 - 0.494ms returns FALSE
T35C8 147614:812.541 JLINK_HasError()
T35C8 147614:812.564 JLINK_IsHalted()
T35C8 147614:813.082 - 0.528ms returns FALSE
T35C8 147614:913.441 JLINK_HasError()
T35C8 147614:913.467 JLINK_HasError()
T35C8 147614:913.477 JLINK_ReadMemU32(0xE0001004, 0x1 Items)
T35C8 147614:913.496   Data:  28 95 0C 05
T35C8 147614:913.509   Debug reg: DWT_CYCCNT
T35C8 147614:913.520 - 0.047ms returns 1 (0x1)
T2504 147614:913.637 JLINK_ReadMemEx(0x200006CF, 0xB Bytes, Flags = 0x02000000)
T2504 147614:913.662   CPU_ReadMem(11 bytes @ 0x200006CF)
T2504 147614:914.696   Data:  00 00 00 00 00 00 00 00 00 00 00
T2504 147614:914.715 - 1.082ms returns 11 (0xB)
T2504 147614:917.104 JLINK_ReadMemEx(0x200006DA, 0x14 Bytes, Flags = 0x02000000)
T2504 147614:917.120   CPU_ReadMem(20 bytes @ 0x200006DA)
T2504 147614:918.177   Data:  00 04 20 00 01 A8 00 00 00 00 00 00 00 00 00 00 ...
T2504 147614:918.195 - 1.095ms returns 20 (0x14)
T2504 147614:918.227 JLINK_ReadMemEx(0x20000410, 0x8 Bytes, Flags = 0x02000000)
T2504 147614:918.241   CPU_ReadMem(8 bytes @ 0x20000410)
T2504 147614:918.729   Data:  00 00 00 00 00 00 00 00
T2504 147614:918.744 - 0.520ms returns 8 (0x8)
T2504 147614:919.697 JLINK_ReadMemEx(0x200006CF, 0xB Bytes, Flags = 0x02000000)
T2504 147614:919.718   CPU_ReadMem(11 bytes @ 0x200006CF)
T2504 147614:920.677   Data:  00 00 00 00 00 00 00 00 00 00 00
T2504 147614:920.695 - 1.001ms returns 11 (0xB)
T2504 147614:920.723 JLINK_ReadMemEx(0x200006C4, 0xB Bytes, Flags = 0x02000000)
T2504 147614:920.737   CPU_ReadMem(11 bytes @ 0x200006C4)
T2504 147614:921.592   Data:  00 00 00 00 00 00 00 00 00 00 00
T2504 147614:921.605 - 0.886ms returns 11 (0xB)
T2504 147614:921.633 JLINK_ReadMemEx(0x2000404C, 0x1 Bytes, Flags = 0x02000000)
T2504 147614:921.645   CPU_ReadMem(1 bytes @ 0x2000404C)
T2504 147614:922.158   Data:  00
T2504 147614:922.178 - 0.549ms returns 1 (0x1)
T35C8 147614:922.451 JLINK_IsHalted()
T35C8 147614:922.869 - 0.425ms returns FALSE
T35C8 147615:023.570 JLINK_HasError()
T35C8 147615:023.597 JLINK_IsHalted()
T35C8 147615:024.061 - 0.483ms returns FALSE
T35C8 147615:124.745 JLINK_HasError()
T35C8 147615:124.773 JLINK_IsHalted()
T35C8 147615:125.214 - 0.457ms returns FALSE
T35C8 147615:225.367 JLINK_HasError()
T35C8 147615:225.390 JLINK_IsHalted()
T35C8 147615:225.968 - 0.592ms returns FALSE
T35C8 147615:326.361 JLINK_HasError()
T35C8 147615:326.383 JLINK_IsHalted()
T35C8 147615:326.811 - 0.438ms returns FALSE
T35C8 147615:426.926 JLINK_HasError()
T35C8 147615:426.953 JLINK_IsHalted()
T35C8 147615:427.379 - 0.434ms returns FALSE
T35C8 147615:527.986 JLINK_HasError()
T35C8 147615:528.020 JLINK_HasError()
T35C8 147615:528.030 JLINK_ReadMemU32(0xE0001004, 0x1 Items)
T35C8 147615:528.051   Data:  28 95 0C 05
T35C8 147615:528.063   Debug reg: DWT_CYCCNT
T35C8 147615:528.074 - 0.047ms returns 1 (0x1)
T2504 147615:528.211 JLINK_ReadMemEx(0x200006CF, 0xB Bytes, Flags = 0x02000000)
T2504 147615:528.235   CPU_ReadMem(11 bytes @ 0x200006CF)
T2504 147615:529.219   Data:  00 00 00 00 00 00 00 00 00 00 00
T2504 147615:529.238 - 1.031ms returns 11 (0xB)
T2504 147615:531.625 JLINK_ReadMemEx(0x200006DA, 0x14 Bytes, Flags = 0x02000000)
T2504 147615:531.638   CPU_ReadMem(20 bytes @ 0x200006DA)
T2504 147615:532.686   Data:  00 04 20 00 01 A8 00 00 00 00 00 00 00 00 00 00 ...
T2504 147615:532.702 - 1.083ms returns 20 (0x14)
T2504 147615:532.730 JLINK_ReadMemEx(0x20000410, 0x8 Bytes, Flags = 0x02000000)
T2504 147615:532.743   CPU_ReadMem(8 bytes @ 0x20000410)
T2504 147615:533.259   Data:  00 00 00 00 00 00 00 00
T2504 147615:533.279 - 0.553ms returns 8 (0x8)
T2504 147615:534.296 JLINK_ReadMemEx(0x200006CF, 0xB Bytes, Flags = 0x02000000)
T2504 147615:534.317   CPU_ReadMem(11 bytes @ 0x200006CF)
T2504 147615:535.233   Data:  00 00 00 00 00 00 00 00 00 00 00
T2504 147615:535.248 - 0.957ms returns 11 (0xB)
T2504 147615:535.274 JLINK_ReadMemEx(0x200006C4, 0xB Bytes, Flags = 0x02000000)
T2504 147615:535.286   CPU_ReadMem(11 bytes @ 0x200006C4)
T2504 147615:536.144   Data:  00 00 00 00 00 00 00 00 00 00 00
T2504 147615:536.159 - 0.888ms returns 11 (0xB)
T2504 147615:536.205 JLINK_ReadMemEx(0x2000404C, 0x1 Bytes, Flags = 0x02000000)
T2504 147615:536.220   CPU_ReadMem(1 bytes @ 0x2000404C)
T2504 147615:536.639   Data:  00
T2504 147615:536.653 - 0.452ms returns 1 (0x1)
T35C8 147615:536.959 JLINK_IsHalted()
T35C8 147615:537.394 - 0.446ms returns FALSE
T35C8 147615:637.878 JLINK_HasError()
T35C8 147615:637.905 JLINK_IsHalted()
T35C8 147615:638.325 - 0.433ms returns FALSE
T35C8 147615:739.140 JLINK_HasError()
T35C8 147615:739.235 JLINK_IsHalted()
T35C8 147615:739.661 - 0.439ms returns FALSE
T35C8 147615:840.683 JLINK_HasError()
T35C8 147615:840.709 JLINK_IsHalted()
T35C8 147615:841.252 - 0.553ms returns FALSE
T35C8 147615:941.706 JLINK_HasError()
T35C8 147615:941.728 JLINK_IsHalted()
T35C8 147615:942.158 - 0.440ms returns FALSE
T35C8 147616:042.789 JLINK_HasError()
T35C8 147616:042.817 JLINK_HasError()
T35C8 147616:042.828 JLINK_ReadMemU32(0xE0001004, 0x1 Items)
T35C8 147616:042.848   Data:  28 95 0C 05
T35C8 147616:042.860   Debug reg: DWT_CYCCNT
T35C8 147616:042.871 - 0.047ms returns 1 (0x1)
T2504 147616:042.987 JLINK_ReadMemEx(0x200006CF, 0xB Bytes, Flags = 0x02000000)
T2504 147616:043.010   CPU_ReadMem(11 bytes @ 0x200006CF)
T2504 147616:044.007   Data:  21 05 43 5C 12 5E C9 53 40 C3 89
T2504 147616:044.026 - 1.042ms returns 11 (0xB)
T2504 147616:048.335 JLINK_ReadMemEx(0x200006DA, 0x14 Bytes, Flags = 0x02000000)
T2504 147616:048.353   CPU_ReadMem(20 bytes @ 0x200006DA)
T2504 147616:049.326   Data:  00 04 20 00 01 A8 00 00 00 00 00 00 00 00 00 00 ...
T2504 147616:049.348 - 1.017ms returns 20 (0x14)
T2504 147616:049.379 JLINK_ReadMemEx(0x20000410, 0x8 Bytes, Flags = 0x02000000)
T2504 147616:049.394   CPU_ReadMem(8 bytes @ 0x20000410)
T2504 147616:049.916   Data:  00 00 00 00 00 00 00 00
T2504 147616:049.936 - 0.560ms returns 8 (0x8)
T2504 147616:051.285 JLINK_ReadMemEx(0x200006CF, 0xB Bytes, Flags = 0x02000000)
T2504 147616:051.301   CPU_ReadMem(11 bytes @ 0x200006CF)
T2504 147616:052.151   Data:  21 05 45 5D 12 CF C3 53 40 2B 54
T2504 147616:052.164 - 0.881ms returns 11 (0xB)
T2504 147616:052.870 JLINK_ReadMemEx(0x200006C4, 0xB Bytes, Flags = 0x02000000)
T2504 147616:052.884   CPU_ReadMem(11 bytes @ 0x200006C4)
